
T4F84 000:513 SEGGER J-Link V4.96d Log File (0000ms, 0297ms total)
T4F84 000:513 DLL Compiled: Jan 29 2015 11:45:37 (0000ms, 0297ms total)
T4F84 000:513 Logging started @ 2021-05-10 21:53 (0000ms, 0297ms total)
T4F84 000:513 JLINK_SetWarnOutHandler(...) (0000ms, 0297ms total)
T4F84 000:513 JLINK_OpenEx(...)
Firmware: J-Link V9 compiled Sep  1 2016 18:29:50
Hardware: V9.40
S/N: 59400616
Feature(s): RDI, FlashBP, FlashDL, JFlash, GDB  returns O.K. (0290ms, 0587ms total)
T4F84 000:804 JLINK_SetErrorOutHandler(...) (0000ms, 0587ms total)
T4F84 000:804 JLINK_ExecCommand("ProjectFile = "D:\救援机器人\大车\resume moter control完整新\USER\JLinkSettings.ini"", ...)Device "UNSPECIFIED" selected.  returns 0x00 (0009ms, 0596ms total)
T4F84 000:813 JLINK_ExecCommand("Device = STM32F405RG", ...)Device "STM32F405RG" selected.  returns 0x00 (0023ms, 0619ms total)
T4F84 000:836 JLINK_ExecCommand("DisableConnectionTimeout", ...)  returns 0x01 (0000ms, 0619ms total)
T4F84 000:836 JLINK_GetHardwareVersion()  returns 0x16F30 (0000ms, 0619ms total)
T4F84 000:836 JLINK_GetDLLVersion()  returns 49604 (0000ms, 0619ms total)
T4F84 000:836 JLINK_GetFirmwareString(...) (0000ms, 0619ms total)
T4F84 000:849 JLINK_GetDLLVersion()  returns 49604 (0000ms, 0619ms total)
T4F84 000:849 JLINK_GetCompileDateTime() (0000ms, 0619ms total)
T4F84 000:856 JLINK_GetFirmwareString(...) (0000ms, 0619ms total)
T4F84 000:860 JLINK_GetHardwareVersion()  returns 0x16F30 (0000ms, 0619ms total)
T4F84 000:887 JLINK_TIF_Select(JLINKARM_TIF_SWD)  returns 0x00 (0002ms, 0621ms total)
T4F84 000:889 JLINK_SetSpeed(5000) (0000ms, 0621ms total)
T4F84 000:889 JLINK_GetId() >0x108 TIF>Found SWD-DP with ID 0x2BA01477 >0x0D TIF> >0x28 TIF> >0x0D TIF> >0x28 TIF> >0x0D TIF> >0x21 TIF> >0x0D TIF> >0x28 TIF> >0x0D TIF> >0x28 TIF> >0x0D TIF> >0x28 TIF> >0x0D TIF> >0x21 TIF> >0x0D TIF> >0x21 TIF> >0x0D TIF> >0x28 TIF> >0x0D TIF> >0x21 TIF> >0x0D TIF> >0x21 TIF> >0x0D TIF> >0x28 TIF> >0x0D TIF> >0x21 TIF> >0x0D TIF> >0x21 TIF> >0x108 TIF>Found SWD-DP with ID 0x2BA01477 >0x0D TIF> >0x21 TIF> >0x0D TIF> >0x28 TIF> >0x0D TIF> >0x28 TIF> >0x0D TIF> >0x21 TIF>
 >0x0D TIF> >0x28 TIF> >0x0D TIF> >0x21 TIF> >0x0D TIF> >0x21 TIF> >0x0D TIF> >0x21 TIF> >0x0D TIF> >0x21 TIF> >0x0D TIF> >0x28 TIF> >0x0D TIF> >0x28 TIF> >0x0D TIF> >0x21 TIF> >0x0D TIF> >0x28 TIF> >0x0D TIF> >0x28 TIF> >0x0D TIF> >0x28 TIF> >0x0D TIF> >0x21 TIF> >0x0D TIF> >0x21 TIF> >0x0D TIF> >0x28 TIF> >0x0D TIF> >0x21 TIF> >0x0D TIF> >0x21 TIF>Found Cortex-M4 r0p1, Little endian. -- CPU_WriteMem(4 bytes @ 0xE0002000) -- CPU_ReadMem(4 bytes @ 0xE000EDF0) -- CPU_ReadMem(4 bytes @ 0xE0002000)
FPUnit: 6 code (BP) slots and 2 literal slots -- CPU_ReadMem(4 bytes @ 0xE000EDFC) -- CPU_ReadMem(4 bytes @ 0xE0001000) -- CPU_WriteMem(4 bytes @ 0xE0001000) -- CPU_ReadMem(4 bytes @ 0xE000ED88) -- CPU_WriteMem(4 bytes @ 0xE000ED88) -- CPU_ReadMem(4 bytes @ 0xE000ED88) -- CPU_WriteMem(4 bytes @ 0xE000ED88) -- CPU_ReadMem(4 bytes @ 0xE00FF010)TPIU fitted. -- CPU_ReadMem(4 bytes @ 0xE00FF014)ETM fitted. -- CPU_ReadMem(4 bytes @ 0xE00FF018) >0x0D TIF> >0x21 TIF>  returns 0x2BA01477 (0115ms, 0736ms total)
T4F84 001:004 JLINK_GetDLLVersion()  returns 49604 (0000ms, 0736ms total)
T4F84 001:004 JLINK_CORE_GetFound()  returns 0xE0000FF (0001ms, 0737ms total)
T4F84 001:005 JLINK_GetDebugInfo(0x100) -- Value=0xE00FF003  returns 0x00 (0001ms, 0738ms total)
T4F84 001:018 JLINK_ReadMem (0xE00FF000, 0x0020 Bytes, ...) -- CPU is running -- CPU_ReadMem(32 bytes @ 0xE00FF000) - Data: 03 F0 F0 FF 03 20 F0 FF 03 30 F0 FF 03 10 F0 FF ...  returns 0x00 (0001ms, 0739ms total)
T4F84 001:019 JLINK_ReadMem (0xE000EFF0, 0x0010 Bytes, ...) -- CPU is running -- CPU_ReadMem(16 bytes @ 0xE000EFF0) - Data: 0D 00 00 00 E0 00 00 00 05 00 00 00 B1 00 00 00  returns 0x00 (0001ms, 0740ms total)
T4F84 001:020 JLINK_ReadMem (0xE000EFD0, 0x0020 Bytes, ...) -- CPU is running -- CPU_ReadMem(32 bytes @ 0xE000EFD0) - Data: 04 00 00 00 00 00 00 00 00 00 00 00 00 00 00 00 ...  returns 0x00 (0001ms, 0741ms total)
T4F84 001:021 JLINK_ReadMem (0xE0001FF0, 0x0010 Bytes, ...) -- CPU is running -- CPU_ReadMem(16 bytes @ 0xE0001FF0) - Data: 0D 00 00 00 E0 00 00 00 05 00 00 00 B1 00 00 00  returns 0x00 (0000ms, 0741ms total)
T4F84 001:022 JLINK_ReadMem (0xE0001FD0, 0x0020 Bytes, ...) -- CPU is running -- CPU_ReadMem(32 bytes @ 0xE0001FD0) - Data: 04 00 00 00 00 00 00 00 00 00 00 00 00 00 00 00 ...  returns 0x00 (0000ms, 0741ms total)
T4F84 001:022 JLINK_ReadMem (0xE0002FF0, 0x0010 Bytes, ...) -- CPU is running -- CPU_ReadMem(16 bytes @ 0xE0002FF0) - Data: 0D 00 00 00 E0 00 00 00 05 00 00 00 B1 00 00 00  returns 0x00 (0001ms, 0742ms total)
T4F84 001:023 JLINK_ReadMem (0xE0002FD0, 0x0020 Bytes, ...) -- CPU is running -- CPU_ReadMem(32 bytes @ 0xE0002FD0) - Data: 04 00 00 00 00 00 00 00 00 00 00 00 00 00 00 00 ...  returns 0x00 (0001ms, 0743ms total)
T4F84 001:024 JLINK_ReadMem (0xE0000FF0, 0x0010 Bytes, ...) -- CPU is running -- CPU_ReadMem(16 bytes @ 0xE0000FF0) - Data: 0D 00 00 00 E0 00 00 00 05 00 00 00 B1 00 00 00  returns 0x00 (0000ms, 0743ms total)
T4F84 001:024 JLINK_ReadMem (0xE0000FD0, 0x0020 Bytes, ...) -- CPU is running -- CPU_ReadMem(32 bytes @ 0xE0000FD0) - Data: 04 00 00 00 00 00 00 00 00 00 00 00 00 00 00 00 ...  returns 0x00 (0001ms, 0744ms total)
T4F84 001:025 JLINK_ReadMem (0xE0040FF0, 0x0010 Bytes, ...) -- CPU is running -- CPU_ReadMem(16 bytes @ 0xE0040FF0) - Data: 0D 00 00 00 90 00 00 00 05 00 00 00 B1 00 00 00  returns 0x00 (0001ms, 0745ms total)
T4F84 001:026 JLINK_ReadMem (0xE0040FD0, 0x0020 Bytes, ...) -- CPU is running -- CPU_ReadMem(32 bytes @ 0xE0040FD0) - Data: 04 00 00 00 00 00 00 00 00 00 00 00 00 00 00 00 ...  returns 0x00 (0001ms, 0746ms total)
T4F84 001:027 JLINK_ReadMem (0xE0041FF0, 0x0010 Bytes, ...) -- CPU is running -- CPU_ReadMem(16 bytes @ 0xE0041FF0) - Data: 0D 00 00 00 90 00 00 00 05 00 00 00 B1 00 00 00  returns 0x00 (0000ms, 0746ms total)
T4F84 001:027 JLINK_ReadMem (0xE0041FD0, 0x0020 Bytes, ...) -- CPU is running -- CPU_ReadMem(32 bytes @ 0xE0041FD0) - Data: 04 00 00 00 00 00 00 00 00 00 00 00 00 00 00 00 ...  returns 0x00 (0001ms, 0747ms total)
T4F84 001:028 JLINK_ReadMemU32(0xE000EF40, 0x0001 Items, ...) -- CPU is running -- CPU_ReadMem(4 bytes @ 0xE000EF40) - Data: 21 00 11 10  returns 0x01 (0001ms, 0748ms total)
T4F84 001:029 JLINK_ReadMemU32(0xE000EF44, 0x0001 Items, ...) -- CPU is running -- CPU_ReadMem(4 bytes @ 0xE000EF44) - Data: 11 00 00 11  returns 0x01 (0000ms, 0748ms total)
T4F84 001:029 JLINK_ReadMemU32(0xE000ED00, 0x0001 Items, ...) -- CPU is running -- CPU_ReadMem(4 bytes @ 0xE000ED00) - Data: 41 C2 0F 41  returns 0x01 (0001ms, 0749ms total)
T4F84 001:030 JLINK_SetResetType(JLINKARM_RESET_TYPE_NORMAL)  returns JLINKARM_RESET_TYPE_NORMAL (0000ms, 0749ms total)
T4F84 001:030 JLINK_Reset() -- CPU is running -- CPU_WriteMem(4 bytes @ 0xE000EDF0) -- CPU is running -- CPU_WriteMem(4 bytes @ 0xE000EDFC) >0x35 TIF> -- CPU is running -- CPU_WriteMem(4 bytes @ 0xE000ED0C) -- CPU is running -- CPU_ReadMem(4 bytes @ 0xE000EDF0) -- CPU is running -- CPU_ReadMem(4 bytes @ 0xE000EDF0) -- CPU is running -- CPU_WriteMem(4 bytes @ 0xE000EDF0) -- CPU is running -- CPU_WriteMem(4 bytes @ 0xE000EDFC) -- CPU is running -- CPU_ReadMem(4 bytes @ 0xE000EDF0)
 -- CPU_WriteMem(4 bytes @ 0xE0002000) -- CPU_ReadMem(4 bytes @ 0xE000EDFC) -- CPU_ReadMem(4 bytes @ 0xE0001000) (0020ms, 0769ms total)
T4F84 001:050 JLINK_ReadReg(R15 (PC))  returns 0x08000248 (0000ms, 0769ms total)
T4F84 001:050 JLINK_ReadReg(XPSR)  returns 0x01000000 (0000ms, 0769ms total)
T4F84 001:050 JLINK_Halt()  returns 0x00 (0000ms, 0769ms total)
T4F84 001:050 JLINK_IsHalted()  returns TRUE (0000ms, 0769ms total)
T4F84 001:050 JLINK_ReadMemU32(0xE000EDF0, 0x0001 Items, ...) -- CPU_ReadMem(4 bytes @ 0xE000EDF0) - Data: 03 00 03 00  returns 0x01 (0001ms, 0770ms total)
T4F84 001:051 JLINK_WriteU32(0xE000EDF0, 0xA05F0003) -- CPU_WriteMem(4 bytes @ 0xE000EDF0)  returns 0x00 (0000ms, 0770ms total)
T4F84 001:051 JLINK_WriteU32(0xE000EDFC, 0x01000000) -- CPU_WriteMem(4 bytes @ 0xE000EDFC)  returns 0x00 (0000ms, 0770ms total)
T4F84 001:106 JLINK_GetHWStatus(...)  returns 0x00 (0001ms, 0771ms total)
T4F84 001:130 JLINK_GetNumBPUnits(Type = 0xFFFFFF00)  returns 0x06 (0000ms, 0771ms total)
T4F84 001:130 JLINK_GetNumBPUnits(Type = 0xF0)  returns 0x2000 (0000ms, 0771ms total)
T4F84 001:130 JLINK_GetNumWPUnits()  returns 0x04 (0000ms, 0771ms total)
T4F84 001:178 JLINK_GetSpeed()  returns 0xFA0 (0000ms, 0772ms total)
T4F84 001:210 JLINK_ReadMemU32(0xE000E004, 0x0001 Items, ...) -- CPU_ReadMem(4 bytes @ 0xE000E004) - Data: 02 00 00 00  returns 0x01 (0001ms, 0773ms total)
T4F84 001:211 JLINK_ReadMemU32(0xE000E004, 0x0001 Items, ...) -- CPU_ReadMem(4 bytes @ 0xE000E004) - Data: 02 00 00 00  returns 0x01 (0000ms, 0773ms total)
T4F84 001:211 JLINK_WriteMem(0xE0001000, 0x001C Bytes, ...) - Data: 01 00 00 00 00 00 00 00 00 00 00 00 00 00 00 00 ... -- CPU_WriteMem(28 bytes @ 0xE0001000)  returns 0x1C (0003ms, 0776ms total)
T4F84 001:214 JLINK_ReadMem (0xE0001000, 0x001C Bytes, ...) -- CPU_ReadMem(28 bytes @ 0xE0001000) - Data: 01 00 00 40 00 00 00 00 00 00 00 00 00 00 00 00 ...  returns 0x00 (0000ms, 0776ms total)
T4F84 001:214 JLINK_ReadReg(R15 (PC))  returns 0x08000248 (0000ms, 0776ms total)
T4F84 001:214 JLINK_ReadReg(XPSR)  returns 0x01000000 (0000ms, 0776ms total)
T4F84 001:395 JLINK_SetResetType(JLINKARM_RESET_TYPE_NORMAL)  returns JLINKARM_RESET_TYPE_NORMAL (0000ms, 0776ms total)
T4F84 001:395 JLINK_Reset() -- CPU_WriteMem(4 bytes @ 0xE000EDF0) -- CPU_WriteMem(4 bytes @ 0xE000EDFC) >0x35 TIF> -- CPU_WriteMem(4 bytes @ 0xE000ED0C) -- CPU_ReadMem(4 bytes @ 0xE000EDF0) -- CPU_ReadMem(4 bytes @ 0xE000EDF0) -- CPU_WriteMem(4 bytes @ 0xE000EDF0) -- CPU_WriteMem(4 bytes @ 0xE000EDFC) -- CPU is running -- CPU_ReadMem(4 bytes @ 0xE000EDF0) -- CPU_WriteMem(4 bytes @ 0xE0002000) -- CPU_ReadMem(4 bytes @ 0xE000EDFC) -- CPU_ReadMem(4 bytes @ 0xE0001000) (0017ms, 0793ms total)
T4F84 001:412 JLINK_ReadReg(R15 (PC))  returns 0x08000248 (0000ms, 0793ms total)
T4F84 001:412 JLINK_ReadReg(XPSR)  returns 0x01000000 (0000ms, 0793ms total)
T4F84 001:413 JLINK_ReadMem (0x08000248, 0x003C Bytes, ...) -- CPU_ReadMem(128 bytes @ 0x08000240) -- Updating C cache (128 bytes @ 0x08000240) -- Read from C cache (60 bytes @ 0x08000248) - Data: 09 48 80 47 09 48 00 47 FE E7 FE E7 FE E7 FE E7 ...  returns 0x00 (0002ms, 0795ms total)
T4F84 009:100 JLINK_ReadMem (0x20000038, 0x0004 Bytes, ...) -- CPU_ReadMem(64 bytes @ 0x20000000) -- Updating C cache (64 bytes @ 0x20000000) -- Read from C cache (4 bytes @ 0x20000038) - Data: C0 88 45 43  returns 0x00 (0001ms, 0796ms total)
T4F84 009:104 JLINK_ReadMem (0x20000080, 0x0004 Bytes, ...) -- CPU_ReadMem(64 bytes @ 0x20000080) -- Updating C cache (64 bytes @ 0x20000080) -- Read from C cache (4 bytes @ 0x20000080) - Data: 00 DC A0 42  returns 0x00 (0000ms, 0796ms total)
T4F84 009:108 JLINK_ReadMem (0x200000C8, 0x0004 Bytes, ...) -- CPU_ReadMem(64 bytes @ 0x200000C0) -- Updating C cache (64 bytes @ 0x200000C0) -- Read from C cache (4 bytes @ 0x200000C8) - Data: 20 F6 6D 43  returns 0x00 (0000ms, 0796ms total)
T4F84 009:110 JLINK_ReadMem (0x20000110, 0x0004 Bytes, ...) -- CPU_ReadMem(64 bytes @ 0x20000100) -- Updating C cache (64 bytes @ 0x20000100) -- Read from C cache (4 bytes @ 0x20000110) - Data: 80 85 86 42  returns 0x00 (0001ms, 0797ms total)
T46CC 009:327 JLINK_SetBPEx(Addr = 0x08003E1C, Type = 0xFFFFFFF2)  returns 0x00000001 (0001ms, 0798ms total)
T46CC 009:328 JLINK_SetBPEx(Addr = 0x080018F4, Type = 0xFFFFFFF2)  returns 0x00000002 (0000ms, 0798ms total)
T46CC 009:328 JLINK_SetBPEx(Addr = 0x08003E90, Type = 0xFFFFFFF2)  returns 0x00000003 (0000ms, 0798ms total)
T46CC 009:328 JLINK_Go() -- CPU_WriteMem(4 bytes @ 0xE0002000) -- CPU_WriteMem(4 bytes @ 0xE0002000) -- CPU_WriteMem(4 bytes @ 0xE0002000) -- CPU_WriteMem(4 bytes @ 0xE0002008) -- CPU_WriteMem(4 bytes @ 0xE000200C) -- CPU_WriteMem(4 bytes @ 0xE0002010) -- CPU_WriteMem(4 bytes @ 0xE0002014) -- CPU_WriteMem(4 bytes @ 0xE0002018) -- CPU_WriteMem(4 bytes @ 0xE000201C) -- CPU_WriteMem(4 bytes @ 0xE0001004) (0004ms, 0802ms total)
T46CC 009:433 JLINK_IsHalted()  returns TRUE (0002ms, 0804ms total)
T46CC 009:435 JLINK_Halt()  returns 0x00 (0000ms, 0802ms total)
T46CC 009:435 JLINK_IsHalted()  returns TRUE (0000ms, 0802ms total)
T46CC 009:435 JLINK_IsHalted()  returns TRUE (0000ms, 0802ms total)
T46CC 009:435 JLINK_IsHalted()  returns TRUE (0000ms, 0802ms total)
T46CC 009:435 JLINK_ReadReg(R15 (PC))  returns 0x08003E1C (0000ms, 0802ms total)
T46CC 009:435 JLINK_ReadReg(XPSR)  returns 0x61000000 (0000ms, 0802ms total)
T46CC 009:435 JLINK_ClrBPEx(BPHandle = 0x00000001)  returns 0x00 (0001ms, 0803ms total)
T46CC 009:436 JLINK_ClrBPEx(BPHandle = 0x00000002)  returns 0x00 (0000ms, 0803ms total)
T46CC 009:436 JLINK_ClrBPEx(BPHandle = 0x00000003)  returns 0x00 (0000ms, 0803ms total)
T46CC 009:436 JLINK_ReadMemU32(0xE000ED30, 0x0001 Items, ...) -- CPU_ReadMem(4 bytes @ 0xE000ED30) - Data: 02 00 00 00  returns 0x01 (0000ms, 0803ms total)
T46CC 009:436 JLINK_ReadMemU32(0xE0001028, 0x0001 Items, ...) -- CPU_ReadMem(4 bytes @ 0xE0001028) - Data: 00 00 00 00  returns 0x01 (0001ms, 0804ms total)
T46CC 009:437 JLINK_ReadMemU32(0xE0001038, 0x0001 Items, ...) -- CPU_ReadMem(4 bytes @ 0xE0001038) - Data: 00 02 00 00  returns 0x01 (0000ms, 0804ms total)
T46CC 009:437 JLINK_ReadMemU32(0xE0001048, 0x0001 Items, ...) -- CPU_ReadMem(4 bytes @ 0xE0001048) - Data: 00 00 00 00  returns 0x01 (0001ms, 0805ms total)
T46CC 009:438 JLINK_ReadMemU32(0xE0001058, 0x0001 Items, ...) -- CPU_ReadMem(4 bytes @ 0xE0001058) - Data: 00 00 00 00  returns 0x01 (0000ms, 0805ms total)
T46CC 009:439 JLINK_ReadReg(R0)  returns 0x20000280 (0000ms, 0805ms total)
T46CC 009:439 JLINK_ReadReg(R1)  returns 0x20000480 (0000ms, 0805ms total)
T46CC 009:439 JLINK_ReadReg(R2)  returns 0x20000480 (0000ms, 0805ms total)
T46CC 009:439 JLINK_ReadReg(R3)  returns 0x20000480 (0000ms, 0805ms total)
T46CC 009:439 JLINK_ReadReg(R4)  returns 0x00000000 (0000ms, 0805ms total)
T46CC 009:439 JLINK_ReadReg(R5)  returns 0x20000220 (0000ms, 0805ms total)
T46CC 009:439 JLINK_ReadReg(R6)  returns 0x00000000 (0000ms, 0805ms total)
T46CC 009:439 JLINK_ReadReg(R7)  returns 0x00000000 (0000ms, 0805ms total)
T46CC 009:439 JLINK_ReadReg(R8)  returns 0x00000000 (0000ms, 0805ms total)
T46CC 009:439 JLINK_ReadReg(R9)  returns 0x00000000 (0000ms, 0805ms total)
T46CC 009:439 JLINK_ReadReg(R10)  returns 0x08004B6C (0000ms, 0805ms total)
T46CC 009:439 JLINK_ReadReg(R11)  returns 0x00000000 (0000ms, 0805ms total)
T46CC 009:439 JLINK_ReadReg(R12)  returns 0x20000260 (0001ms, 0806ms total)
T46CC 009:440 JLINK_ReadReg(R13 (SP))  returns 0x20000880 (0000ms, 0806ms total)
T46CC 009:440 JLINK_ReadReg(R14)  returns 0x08000237 (0000ms, 0806ms total)
T46CC 009:440 JLINK_ReadReg(R15 (PC))  returns 0x08003E1C (0000ms, 0806ms total)
T46CC 009:440 JLINK_ReadReg(XPSR)  returns 0x61000000 (0000ms, 0806ms total)
T46CC 009:440 JLINK_ReadReg(MSP)  returns 0x20000880 (0000ms, 0806ms total)
T46CC 009:440 JLINK_ReadReg(PSP)  returns 0x00000000 (0000ms, 0806ms total)
T46CC 009:440 JLINK_ReadReg(CFBP)  returns 0x04000000 (0000ms, 0806ms total)
T46CC 009:440 JLINK_ReadReg(FPSCR)  returns 0x03000000 (0003ms, 0809ms total)
T46CC 009:443 JLINK_ReadReg(FPS0)  returns 0x00000000 (0000ms, 0809ms total)
T46CC 009:443 JLINK_ReadReg(FPS1)  returns 0x00000000 (0000ms, 0809ms total)
T46CC 009:443 JLINK_ReadReg(FPS2)  returns 0x00000000 (0000ms, 0809ms total)
T46CC 009:443 JLINK_ReadReg(FPS3)  returns 0x00000000 (0001ms, 0810ms total)
T46CC 009:444 JLINK_ReadReg(FPS4)  returns 0x00000000 (0000ms, 0810ms total)
T46CC 009:444 JLINK_ReadReg(FPS5)  returns 0x00000000 (0000ms, 0810ms total)
T46CC 009:444 JLINK_ReadReg(FPS6)  returns 0x00000000 (0000ms, 0810ms total)
T46CC 009:444 JLINK_ReadReg(FPS7)  returns 0x00000000 (0000ms, 0810ms total)
T46CC 009:444 JLINK_ReadReg(FPS8)  returns 0x00000000 (0000ms, 0810ms total)
T46CC 009:444 JLINK_ReadReg(FPS9)  returns 0x00000000 (0000ms, 0810ms total)
T46CC 009:444 JLINK_ReadReg(FPS10)  returns 0x00000000 (0000ms, 0810ms total)
T46CC 009:444 JLINK_ReadReg(FPS11)  returns 0x00000000 (0000ms, 0810ms total)
T46CC 009:444 JLINK_ReadReg(FPS12)  returns 0x00000000 (0000ms, 0810ms total)
T46CC 009:444 JLINK_ReadReg(FPS13)  returns 0x00000000 (0000ms, 0810ms total)
T46CC 009:444 JLINK_ReadReg(FPS14)  returns 0x00000000 (0000ms, 0810ms total)
T46CC 009:444 JLINK_ReadReg(FPS15)  returns 0x00000000 (0000ms, 0810ms total)
T46CC 009:444 JLINK_ReadReg(FPS16)  returns 0x00000000 (0001ms, 0811ms total)
T46CC 009:445 JLINK_ReadReg(FPS17)  returns 0x00000000 (0000ms, 0811ms total)
T46CC 009:445 JLINK_ReadReg(FPS18)  returns 0x00000000 (0000ms, 0811ms total)
T46CC 009:445 JLINK_ReadReg(FPS19)  returns 0x00000000 (0000ms, 0811ms total)
T46CC 009:445 JLINK_ReadReg(FPS20)  returns 0x00000000 (0000ms, 0811ms total)
T46CC 009:445 JLINK_ReadReg(FPS21)  returns 0x00000000 (0000ms, 0811ms total)
T46CC 009:445 JLINK_ReadReg(FPS22)  returns 0x00000000 (0000ms, 0811ms total)
T46CC 009:445 JLINK_ReadReg(FPS23)  returns 0x00000000 (0000ms, 0811ms total)
T46CC 009:445 JLINK_ReadReg(FPS24)  returns 0x00000000 (0000ms, 0811ms total)
T46CC 009:445 JLINK_ReadReg(FPS25)  returns 0x00000000 (0000ms, 0811ms total)
T46CC 009:445 JLINK_ReadReg(FPS26)  returns 0x00000000 (0000ms, 0811ms total)
T46CC 009:445 JLINK_ReadReg(FPS27)  returns 0x00000000 (0000ms, 0811ms total)
T46CC 009:445 JLINK_ReadReg(FPS28)  returns 0x00000000 (0000ms, 0811ms total)
T46CC 009:445 JLINK_ReadReg(FPS29)  returns 0x00000000 (0000ms, 0811ms total)
T46CC 009:446 JLINK_ReadReg(FPS30)  returns 0x00000000 (0000ms, 0812ms total)
T46CC 009:446 JLINK_ReadReg(FPS31)  returns 0x00000000 (0000ms, 0812ms total)
T4F84 009:459 JLINK_ReadMemU32(0xE0001004, 0x0001 Items, ...) -- CPU_ReadMem(4 bytes @ 0xE0001004) - Data: A7 15 00 00  returns 0x01 (0001ms, 0813ms total)
T4F84 009:460 JLINK_ReadMem (0x20000038, 0x0004 Bytes, ...) -- CPU_ReadMem(64 bytes @ 0x20000000) -- Updating C cache (64 bytes @ 0x20000000) -- Read from C cache (4 bytes @ 0x20000038) - Data: 00 00 00 00  returns 0x00 (0001ms, 0814ms total)
T4F84 009:474 JLINK_ReadMem (0x20000080, 0x0004 Bytes, ...) -- CPU_ReadMem(64 bytes @ 0x20000080) -- Updating C cache (64 bytes @ 0x20000080) -- Read from C cache (4 bytes @ 0x20000080) - Data: 00 00 00 00  returns 0x00 (0001ms, 0815ms total)
T4F84 009:476 JLINK_ReadMem (0x200000C8, 0x0004 Bytes, ...) -- CPU_ReadMem(64 bytes @ 0x200000C0) -- Updating C cache (64 bytes @ 0x200000C0) -- Read from C cache (4 bytes @ 0x200000C8) - Data: 00 00 00 00  returns 0x00 (0001ms, 0816ms total)
T4F84 009:479 JLINK_ReadMem (0x20000110, 0x0004 Bytes, ...) -- CPU_ReadMem(64 bytes @ 0x20000100) -- Updating C cache (64 bytes @ 0x20000100) -- Read from C cache (4 bytes @ 0x20000110) - Data: 00 00 00 00  returns 0x00 (0001ms, 0817ms total)
T4F84 009:490 JLINK_ReadMem (0x08003E1C, 0x003C Bytes, ...) -- CPU_ReadMem(128 bytes @ 0x08003E00) -- Updating C cache (128 bytes @ 0x08003E00) -- Read from C cache (60 bytes @ 0x08003E1C) - Data: 08 B5 4F F4 A0 60 FF F7 9D F8 A8 20 FF F7 28 FF ...  returns 0x00 (0002ms, 0819ms total)
T4F84 009:868 JLINK_ReadMem (0x08003E90, 0x003C Bytes, ...) -- CPU_ReadMem(128 bytes @ 0x08003E80) -- Updating C cache (128 bytes @ 0x08003E80) -- Read from C cache (60 bytes @ 0x08003E90) - Data: FD F7 86 FB 05 48 00 68 C0 43 05 49 C1 F8 B4 02 ...  returns 0x00 (0001ms, 0820ms total)
T46CC 012:379 JLINK_SetBPEx(Addr = 0x080018F4, Type = 0xFFFFFFF2)  returns 0x00000004 (0000ms, 0820ms total)
T46CC 012:379 JLINK_SetBPEx(Addr = 0x08003E90, Type = 0xFFFFFFF2)  returns 0x00000005 (0000ms, 0820ms total)
T46CC 012:379 JLINK_Go() -- CPU_WriteMem(4 bytes @ 0xE0002000) -- CPU_WriteMem(4 bytes @ 0xE0002000) -- CPU_WriteMem(4 bytes @ 0xE0002008) -- CPU_WriteMem(4 bytes @ 0xE000200C) -- CPU_WriteMem(4 bytes @ 0xE0002010) (0003ms, 0823ms total)
T46CC 012:483 JLINK_IsHalted()  returns FALSE (0000ms, 0823ms total)
T46CC 012:584 JLINK_IsHalted()  returns TRUE (0003ms, 0826ms total)
T46CC 012:587 JLINK_Halt()  returns 0x00 (0000ms, 0823ms total)
T46CC 012:587 JLINK_IsHalted()  returns TRUE (0000ms, 0823ms total)
T46CC 012:587 JLINK_IsHalted()  returns TRUE (0000ms, 0823ms total)
T46CC 012:587 JLINK_IsHalted()  returns TRUE (0000ms, 0823ms total)
T46CC 012:587 JLINK_ReadReg(R15 (PC))  returns 0x08003E90 (0000ms, 0823ms total)
T46CC 012:587 JLINK_ReadReg(XPSR)  returns 0x61000000 (0000ms, 0823ms total)
T46CC 012:587 JLINK_ClrBPEx(BPHandle = 0x00000004)  returns 0x00 (0000ms, 0823ms total)
T46CC 012:587 JLINK_ClrBPEx(BPHandle = 0x00000005)  returns 0x00 (0000ms, 0823ms total)
T46CC 012:587 JLINK_ReadMemU32(0xE000ED30, 0x0001 Items, ...) -- CPU_ReadMem(4 bytes @ 0xE000ED30) - Data: 02 00 00 00  returns 0x01 (0001ms, 0824ms total)
T46CC 012:588 JLINK_ReadMemU32(0xE0001028, 0x0001 Items, ...) -- CPU_ReadMem(4 bytes @ 0xE0001028) - Data: 00 00 00 00  returns 0x01 (0000ms, 0824ms total)
T46CC 012:588 JLINK_ReadMemU32(0xE0001038, 0x0001 Items, ...) -- CPU_ReadMem(4 bytes @ 0xE0001038) - Data: 00 02 00 00  returns 0x01 (0001ms, 0825ms total)
T46CC 012:589 JLINK_ReadMemU32(0xE0001048, 0x0001 Items, ...) -- CPU_ReadMem(4 bytes @ 0xE0001048) - Data: 00 00 00 00  returns 0x01 (0001ms, 0826ms total)
T46CC 012:590 JLINK_ReadMemU32(0xE0001058, 0x0001 Items, ...) -- CPU_ReadMem(4 bytes @ 0xE0001058) - Data: 00 00 00 00  returns 0x01 (0000ms, 0826ms total)
T46CC 012:591 JLINK_ReadReg(R0)  returns 0x00000000 (0000ms, 0826ms total)
T46CC 012:591 JLINK_ReadReg(R1)  returns 0x40003000 (0000ms, 0826ms total)
T46CC 012:591 JLINK_ReadReg(R2)  returns 0x08003EAA (0000ms, 0826ms total)
T46CC 012:591 JLINK_ReadReg(R3)  returns 0x40004804 (0000ms, 0826ms total)
T46CC 012:591 JLINK_ReadReg(R4)  returns 0x00000000 (0000ms, 0826ms total)
T46CC 012:591 JLINK_ReadReg(R5)  returns 0x20000220 (0000ms, 0826ms total)
T46CC 012:591 JLINK_ReadReg(R6)  returns 0x00000000 (0000ms, 0826ms total)
T46CC 012:591 JLINK_ReadReg(R7)  returns 0x00000000 (0000ms, 0826ms total)
T46CC 012:591 JLINK_ReadReg(R8)  returns 0x00000000 (0000ms, 0826ms total)
T46CC 012:591 JLINK_ReadReg(R9)  returns 0x00000000 (0000ms, 0826ms total)
T46CC 012:591 JLINK_ReadReg(R10)  returns 0x08004B6C (0000ms, 0826ms total)
T46CC 012:592 JLINK_ReadReg(R11)  returns 0x00000000 (0000ms, 0827ms total)
T46CC 012:592 JLINK_ReadReg(R12)  returns 0x33333330 (0000ms, 0827ms total)
T46CC 012:592 JLINK_ReadReg(R13 (SP))  returns 0x20000878 (0000ms, 0827ms total)
T46CC 012:592 JLINK_ReadReg(R14)  returns 0x08003933 (0000ms, 0827ms total)
T46CC 012:592 JLINK_ReadReg(R15 (PC))  returns 0x08003E90 (0000ms, 0827ms total)
T46CC 012:592 JLINK_ReadReg(XPSR)  returns 0x61000000 (0000ms, 0827ms total)
T46CC 012:592 JLINK_ReadReg(MSP)  returns 0x20000878 (0000ms, 0827ms total)
T46CC 012:592 JLINK_ReadReg(PSP)  returns 0x00000000 (0000ms, 0827ms total)
T46CC 012:592 JLINK_ReadReg(CFBP)  returns 0x04000000 (0000ms, 0827ms total)
T46CC 012:592 JLINK_ReadReg(FPSCR)  returns 0x03000010 (0004ms, 0831ms total)
T46CC 012:596 JLINK_ReadReg(FPS0)  returns 0x435D4270 (0000ms, 0831ms total)
T46CC 012:596 JLINK_ReadReg(FPS1)  returns 0x40533333 (0000ms, 0831ms total)
T46CC 012:596 JLINK_ReadReg(FPS2)  returns 0x428618C0 (0000ms, 0831ms total)
T46CC 012:596 JLINK_ReadReg(FPS3)  returns 0x00000000 (0000ms, 0831ms total)
T46CC 012:596 JLINK_ReadReg(FPS4)  returns 0x00000000 (0000ms, 0831ms total)
T46CC 012:596 JLINK_ReadReg(FPS5)  returns 0x00000000 (0000ms, 0831ms total)
T46CC 012:596 JLINK_ReadReg(FPS6)  returns 0x00000000 (0000ms, 0831ms total)
T46CC 012:596 JLINK_ReadReg(FPS7)  returns 0x00000000 (0000ms, 0831ms total)
T46CC 012:596 JLINK_ReadReg(FPS8)  returns 0x00000000 (0000ms, 0831ms total)
T46CC 012:596 JLINK_ReadReg(FPS9)  returns 0x00000000 (0000ms, 0831ms total)
T46CC 012:596 JLINK_ReadReg(FPS10)  returns 0x00000000 (0000ms, 0831ms total)
T46CC 012:597 JLINK_ReadReg(FPS11)  returns 0x00000000 (0000ms, 0832ms total)
T46CC 012:597 JLINK_ReadReg(FPS12)  returns 0x00000000 (0000ms, 0832ms total)
T46CC 012:597 JLINK_ReadReg(FPS13)  returns 0x00000000 (0000ms, 0832ms total)
T46CC 012:597 JLINK_ReadReg(FPS14)  returns 0x00000000 (0000ms, 0832ms total)
T46CC 012:597 JLINK_ReadReg(FPS15)  returns 0x00000000 (0000ms, 0832ms total)
T46CC 012:597 JLINK_ReadReg(FPS16)  returns 0x00000000 (0000ms, 0832ms total)
T46CC 012:597 JLINK_ReadReg(FPS17)  returns 0x00000000 (0000ms, 0832ms total)
T46CC 012:597 JLINK_ReadReg(FPS18)  returns 0x00000000 (0000ms, 0832ms total)
T46CC 012:597 JLINK_ReadReg(FPS19)  returns 0x00000000 (0000ms, 0832ms total)
T46CC 012:597 JLINK_ReadReg(FPS20)  returns 0x00000000 (0000ms, 0832ms total)
T46CC 012:597 JLINK_ReadReg(FPS21)  returns 0x00000000 (0000ms, 0832ms total)
T46CC 012:597 JLINK_ReadReg(FPS22)  returns 0x00000000 (0001ms, 0833ms total)
T46CC 012:598 JLINK_ReadReg(FPS23)  returns 0x00000000 (0000ms, 0833ms total)
T46CC 012:598 JLINK_ReadReg(FPS24)  returns 0x00000000 (0000ms, 0833ms total)
T46CC 012:598 JLINK_ReadReg(FPS25)  returns 0x00000000 (0000ms, 0833ms total)
T46CC 012:598 JLINK_ReadReg(FPS26)  returns 0x00000000 (0000ms, 0833ms total)
T46CC 012:598 JLINK_ReadReg(FPS27)  returns 0x00000000 (0000ms, 0833ms total)
T46CC 012:598 JLINK_ReadReg(FPS28)  returns 0x00000000 (0000ms, 0833ms total)
T46CC 012:598 JLINK_ReadReg(FPS29)  returns 0x00000000 (0000ms, 0833ms total)
T46CC 012:598 JLINK_ReadReg(FPS30)  returns 0x00000000 (0000ms, 0833ms total)
T46CC 012:598 JLINK_ReadReg(FPS31)  returns 0x00000000 (0000ms, 0833ms total)
T4F84 012:599 JLINK_ReadMem (0x2000087C, 0x0004 Bytes, ...) -- CPU_ReadMem(64 bytes @ 0x20000840) -- Updating C cache (64 bytes @ 0x20000840) -- Read from C cache (4 bytes @ 0x2000087C) - Data: 37 02 00 08  returns 0x00 (0000ms, 0833ms total)
T4F84 012:600 JLINK_ReadMemU32(0xE0001004, 0x0001 Items, ...) -- CPU_ReadMem(4 bytes @ 0xE0001004) - Data: 96 B5 04 01  returns 0x01 (0000ms, 0833ms total)
T4F84 012:601 JLINK_ReadMem (0x20000038, 0x0004 Bytes, ...) -- CPU_ReadMem(64 bytes @ 0x20000000) -- Updating C cache (64 bytes @ 0x20000000) -- Read from C cache (4 bytes @ 0x20000038) - Data: A0 E5 44 43  returns 0x00 (0000ms, 0833ms total)
T4F84 012:616 JLINK_ReadMem (0x20000080, 0x0004 Bytes, ...) -- CPU_ReadMem(64 bytes @ 0x20000080) -- Updating C cache (64 bytes @ 0x20000080) -- Read from C cache (4 bytes @ 0x20000080) - Data: 40 6F A0 42  returns 0x00 (0001ms, 0834ms total)
T4F84 012:618 JLINK_ReadMem (0x200000C8, 0x0004 Bytes, ...) -- CPU_ReadMem(64 bytes @ 0x200000C0) -- Updating C cache (64 bytes @ 0x200000C0) -- Read from C cache (4 bytes @ 0x200000C8) - Data: E0 D1 6D 43  returns 0x00 (0001ms, 0835ms total)
T4F84 012:622 JLINK_ReadMem (0x20000110, 0x0004 Bytes, ...) -- CPU_ReadMem(64 bytes @ 0x20000100) -- Updating C cache (64 bytes @ 0x20000100) -- Read from C cache (4 bytes @ 0x20000110) - Data: C0 18 86 42  returns 0x00 (0001ms, 0836ms total)
T4F84 012:642 JLINK_ReadMem (0x08003E90, 0x003C Bytes, ...) -- CPU_ReadMem(128 bytes @ 0x08003E80) -- Updating C cache (128 bytes @ 0x08003E80) -- Read from C cache (60 bytes @ 0x08003E90) - Data: FD F7 86 FB 05 48 00 68 C0 43 05 49 C1 F8 B4 02 ...  returns 0x00 (0001ms, 0837ms total)
T46CC 013:943 JLINK_Step() -- Read from C cache (2 bytes @ 0x08003E90) -- Read from C cache (2 bytes @ 0x08003E92) -- Simulated  returns 0x00 (0001ms, 0838ms total)
T46CC 013:944 JLINK_ReadReg(R15 (PC))  returns 0x080015A0 (0000ms, 0838ms total)
T46CC 013:944 JLINK_ReadReg(XPSR)  returns 0x61000000 (0000ms, 0838ms total)
T46CC 013:944 JLINK_SetBPEx(Addr = 0x080018F4, Type = 0xFFFFFFF2)  returns 0x00000006 (0000ms, 0838ms total)
T46CC 013:944 JLINK_SetBPEx(Addr = 0x08003E90, Type = 0xFFFFFFF2)  returns 0x00000007 (0000ms, 0838ms total)
T46CC 013:944 JLINK_Go() -- CPU_WriteMem(4 bytes @ 0xE0002000) -- CPU_WriteMem(4 bytes @ 0xE0002000) -- CPU_WriteMem(4 bytes @ 0xE0001004) (0003ms, 0841ms total)
T46CC 014:048 JLINK_IsHalted()  returns TRUE (0003ms, 0844ms total)
T46CC 014:051 JLINK_Halt()  returns 0x00 (0000ms, 0841ms total)
T46CC 014:051 JLINK_IsHalted()  returns TRUE (0000ms, 0841ms total)
T46CC 014:051 JLINK_IsHalted()  returns TRUE (0000ms, 0841ms total)
T46CC 014:051 JLINK_IsHalted()  returns TRUE (0000ms, 0841ms total)
T46CC 014:051 JLINK_ReadReg(R15 (PC))  returns 0x08003E90 (0000ms, 0841ms total)
T46CC 014:051 JLINK_ReadReg(XPSR)  returns 0x61000000 (0000ms, 0841ms total)
T46CC 014:051 JLINK_ClrBPEx(BPHandle = 0x00000006)  returns 0x00 (0000ms, 0841ms total)
T46CC 014:051 JLINK_ClrBPEx(BPHandle = 0x00000007)  returns 0x00 (0001ms, 0842ms total)
T46CC 014:052 JLINK_ReadMemU32(0xE000ED30, 0x0001 Items, ...) -- CPU_ReadMem(4 bytes @ 0xE000ED30) - Data: 02 00 00 00  returns 0x01 (0000ms, 0842ms total)
T46CC 014:052 JLINK_ReadMemU32(0xE0001028, 0x0001 Items, ...) -- CPU_ReadMem(4 bytes @ 0xE0001028) - Data: 00 00 00 00  returns 0x01 (0001ms, 0843ms total)
T46CC 014:053 JLINK_ReadMemU32(0xE0001038, 0x0001 Items, ...) -- CPU_ReadMem(4 bytes @ 0xE0001038) - Data: 00 02 00 00  returns 0x01 (0000ms, 0843ms total)
T46CC 014:054 JLINK_ReadMemU32(0xE0001048, 0x0001 Items, ...) -- CPU_ReadMem(4 bytes @ 0xE0001048) - Data: 00 00 00 00  returns 0x01 (0000ms, 0844ms total)
T46CC 014:054 JLINK_ReadMemU32(0xE0001058, 0x0001 Items, ...) -- CPU_ReadMem(4 bytes @ 0xE0001058) - Data: 00 00 00 00  returns 0x01 (0001ms, 0845ms total)
T46CC 014:055 JLINK_ReadReg(R0)  returns 0x00000000 (0000ms, 0845ms total)
T46CC 014:055 JLINK_ReadReg(R1)  returns 0x40003000 (0000ms, 0845ms total)
T46CC 014:055 JLINK_ReadReg(R2)  returns 0x20000038 (0000ms, 0845ms total)
T46CC 014:055 JLINK_ReadReg(R3)  returns 0x40200000 (0000ms, 0845ms total)
T46CC 014:055 JLINK_ReadReg(R4)  returns 0x00000000 (0000ms, 0845ms total)
T46CC 014:055 JLINK_ReadReg(R5)  returns 0x20000220 (0000ms, 0845ms total)
T46CC 014:055 JLINK_ReadReg(R6)  returns 0x00000000 (0000ms, 0845ms total)
T46CC 014:055 JLINK_ReadReg(R7)  returns 0x00000000 (0001ms, 0846ms total)
T46CC 014:056 JLINK_ReadReg(R8)  returns 0x00000000 (0000ms, 0846ms total)
T46CC 014:056 JLINK_ReadReg(R9)  returns 0x00000000 (0000ms, 0846ms total)
T46CC 014:056 JLINK_ReadReg(R10)  returns 0x08004B6C (0000ms, 0846ms total)
T46CC 014:056 JLINK_ReadReg(R11)  returns 0x00000000 (0000ms, 0846ms total)
T46CC 014:056 JLINK_ReadReg(R12)  returns 0x4061E2FC (0000ms, 0846ms total)
T46CC 014:056 JLINK_ReadReg(R13 (SP))  returns 0x20000878 (0000ms, 0846ms total)
T46CC 014:056 JLINK_ReadReg(R14)  returns 0x08003933 (0000ms, 0846ms total)
T46CC 014:056 JLINK_ReadReg(R15 (PC))  returns 0x08003E90 (0000ms, 0846ms total)
T46CC 014:056 JLINK_ReadReg(XPSR)  returns 0x61000000 (0000ms, 0846ms total)
T46CC 014:056 JLINK_ReadReg(MSP)  returns 0x20000878 (0000ms, 0846ms total)
T46CC 014:056 JLINK_ReadReg(PSP)  returns 0x00000000 (0000ms, 0846ms total)
T46CC 014:056 JLINK_ReadReg(CFBP)  returns 0x04000000 (0000ms, 0846ms total)
T46CC 014:057 JLINK_ReadReg(FPSCR)  returns 0x83000010 (0003ms, 0850ms total)
T46CC 014:060 JLINK_ReadReg(FPS0)  returns 0x43520000 (0000ms, 0850ms total)
T46CC 014:060 JLINK_ReadReg(FPS1)  returns 0x4285D040 (0000ms, 0850ms total)
T46CC 014:060 JLINK_ReadReg(FPS2)  returns 0x4285D040 (0000ms, 0850ms total)
T46CC 014:060 JLINK_ReadReg(FPS3)  returns 0x00000000 (0000ms, 0850ms total)
T46CC 014:060 JLINK_ReadReg(FPS4)  returns 0x00000000 (0000ms, 0850ms total)
T46CC 014:060 JLINK_ReadReg(FPS5)  returns 0x00000000 (0000ms, 0850ms total)
T46CC 014:060 JLINK_ReadReg(FPS6)  returns 0x00000000 (0000ms, 0850ms total)
T46CC 014:060 JLINK_ReadReg(FPS7)  returns 0x00000000 (0001ms, 0851ms total)
T46CC 014:061 JLINK_ReadReg(FPS8)  returns 0x00000000 (0000ms, 0851ms total)
T46CC 014:061 JLINK_ReadReg(FPS9)  returns 0x00000000 (0000ms, 0851ms total)
T46CC 014:061 JLINK_ReadReg(FPS10)  returns 0x00000000 (0000ms, 0851ms total)
T46CC 014:061 JLINK_ReadReg(FPS11)  returns 0x00000000 (0000ms, 0851ms total)
T46CC 014:061 JLINK_ReadReg(FPS12)  returns 0x00000000 (0000ms, 0851ms total)
T46CC 014:061 JLINK_ReadReg(FPS13)  returns 0x00000000 (0000ms, 0851ms total)
T46CC 014:061 JLINK_ReadReg(FPS14)  returns 0x00000000 (0000ms, 0851ms total)
T46CC 014:061 JLINK_ReadReg(FPS15)  returns 0x00000000 (0000ms, 0851ms total)
T46CC 014:061 JLINK_ReadReg(FPS16)  returns 0x00000000 (0000ms, 0851ms total)
T46CC 014:061 JLINK_ReadReg(FPS17)  returns 0x00000000 (0000ms, 0851ms total)
T46CC 014:061 JLINK_ReadReg(FPS18)  returns 0x00000000 (0000ms, 0851ms total)
T46CC 014:062 JLINK_ReadReg(FPS19)  returns 0x00000000 (0000ms, 0852ms total)
T46CC 014:062 JLINK_ReadReg(FPS20)  returns 0x00000000 (0000ms, 0852ms total)
T46CC 014:062 JLINK_ReadReg(FPS21)  returns 0x00000000 (0000ms, 0852ms total)
T46CC 014:062 JLINK_ReadReg(FPS22)  returns 0x00000000 (0000ms, 0852ms total)
T46CC 014:062 JLINK_ReadReg(FPS23)  returns 0x00000000 (0000ms, 0852ms total)
T46CC 014:062 JLINK_ReadReg(FPS24)  returns 0x00000000 (0000ms, 0852ms total)
T46CC 014:062 JLINK_ReadReg(FPS25)  returns 0x00000000 (0000ms, 0852ms total)
T46CC 014:062 JLINK_ReadReg(FPS26)  returns 0x00000000 (0000ms, 0852ms total)
T46CC 014:062 JLINK_ReadReg(FPS27)  returns 0x00000000 (0000ms, 0852ms total)
T46CC 014:062 JLINK_ReadReg(FPS28)  returns 0x00000000 (0000ms, 0852ms total)
T46CC 014:062 JLINK_ReadReg(FPS29)  returns 0x00000000 (0001ms, 0853ms total)
T46CC 014:063 JLINK_ReadReg(FPS30)  returns 0x00000000 (0000ms, 0853ms total)
T46CC 014:063 JLINK_ReadReg(FPS31)  returns 0x00000000 (0000ms, 0853ms total)
T4F84 014:064 JLINK_ReadMem (0x2000087C, 0x0004 Bytes, ...) -- CPU_ReadMem(64 bytes @ 0x20000840) -- Updating C cache (64 bytes @ 0x20000840) -- Read from C cache (4 bytes @ 0x2000087C) - Data: 37 02 00 08  returns 0x00 (0001ms, 0854ms total)
T4F84 014:065 JLINK_ReadMemU32(0xE0001004, 0x0001 Items, ...) -- CPU_ReadMem(4 bytes @ 0xE0001004) - Data: BA 76 06 02  returns 0x01 (0001ms, 0855ms total)
T4F84 014:069 JLINK_ReadMem (0x20000038, 0x0004 Bytes, ...) -- CPU_ReadMem(64 bytes @ 0x20000000) -- Updating C cache (64 bytes @ 0x20000000) -- Read from C cache (4 bytes @ 0x20000038) - Data: 20 2E 45 43  returns 0x00 (0001ms, 0856ms total)
T4F84 014:084 JLINK_ReadMem (0x20000080, 0x0004 Bytes, ...) -- CPU_ReadMem(64 bytes @ 0x20000080) -- Updating C cache (64 bytes @ 0x20000080) -- Read from C cache (4 bytes @ 0x20000080) - Data: 40 00 A1 42  returns 0x00 (0001ms, 0857ms total)
T4F84 014:093 JLINK_ReadMem (0x200000C8, 0x0004 Bytes, ...) -- CPU_ReadMem(64 bytes @ 0x200000C0) -- Updating C cache (64 bytes @ 0x200000C0) -- Read from C cache (4 bytes @ 0x200000C8) - Data: 60 1A 6E 43  returns 0x00 (0001ms, 0858ms total)
T4F84 014:097 JLINK_ReadMem (0x20000110, 0x0004 Bytes, ...) -- CPU_ReadMem(64 bytes @ 0x20000100) -- Updating C cache (64 bytes @ 0x20000100) -- Read from C cache (4 bytes @ 0x20000110) - Data: 40 D0 85 42  returns 0x00 (0001ms, 0859ms total)
T46CC 014:956 JLINK_Step() -- CPU_ReadMem(64 bytes @ 0x08003E80) -- Updating C cache (64 bytes @ 0x08003E80) -- Read from C cache (2 bytes @ 0x08003E90) -- Read from C cache (2 bytes @ 0x08003E92) -- Simulated  returns 0x00 (0002ms, 0861ms total)
T46CC 014:958 JLINK_ReadReg(R15 (PC))  returns 0x080015A0 (0000ms, 0861ms total)
T46CC 014:958 JLINK_ReadReg(XPSR)  returns 0x61000000 (0000ms, 0861ms total)
T46CC 014:958 JLINK_SetBPEx(Addr = 0x080018F4, Type = 0xFFFFFFF2)  returns 0x00000008 (0000ms, 0861ms total)
T46CC 014:958 JLINK_SetBPEx(Addr = 0x08003E90, Type = 0xFFFFFFF2)  returns 0x00000009 (0000ms, 0861ms total)
T46CC 014:958 JLINK_Go() -- CPU_WriteMem(4 bytes @ 0xE0002000) -- CPU_WriteMem(4 bytes @ 0xE0002000) -- CPU_WriteMem(4 bytes @ 0xE0001004) (0003ms, 0864ms total)
T46CC 015:062 JLINK_IsHalted()  returns TRUE (0002ms, 0866ms total)
T46CC 015:064 JLINK_Halt()  returns 0x00 (0000ms, 0864ms total)
T46CC 015:064 JLINK_IsHalted()  returns TRUE (0000ms, 0864ms total)
T46CC 015:064 JLINK_IsHalted()  returns TRUE (0000ms, 0864ms total)
T46CC 015:064 JLINK_IsHalted()  returns TRUE (0000ms, 0864ms total)
T46CC 015:064 JLINK_ReadReg(R15 (PC))  returns 0x08003E90 (0001ms, 0865ms total)
T46CC 015:065 JLINK_ReadReg(XPSR)  returns 0x61000000 (0000ms, 0865ms total)
T46CC 015:065 JLINK_ClrBPEx(BPHandle = 0x00000008)  returns 0x00 (0000ms, 0865ms total)
T46CC 015:065 JLINK_ClrBPEx(BPHandle = 0x00000009)  returns 0x00 (0000ms, 0865ms total)
T46CC 015:065 JLINK_ReadMemU32(0xE000ED30, 0x0001 Items, ...) -- CPU_ReadMem(4 bytes @ 0xE000ED30) - Data: 02 00 00 00  returns 0x01 (0000ms, 0865ms total)
T46CC 015:065 JLINK_ReadMemU32(0xE0001028, 0x0001 Items, ...) -- CPU_ReadMem(4 bytes @ 0xE0001028) - Data: 00 00 00 00  returns 0x01 (0001ms, 0866ms total)
T46CC 015:066 JLINK_ReadMemU32(0xE0001038, 0x0001 Items, ...) -- CPU_ReadMem(4 bytes @ 0xE0001038) - Data: 00 02 00 00  returns 0x01 (0001ms, 0867ms total)
T46CC 015:067 JLINK_ReadMemU32(0xE0001048, 0x0001 Items, ...) -- CPU_ReadMem(4 bytes @ 0xE0001048) - Data: 00 00 00 00  returns 0x01 (0000ms, 0867ms total)
T46CC 015:067 JLINK_ReadMemU32(0xE0001058, 0x0001 Items, ...) -- CPU_ReadMem(4 bytes @ 0xE0001058) - Data: 00 00 00 00  returns 0x01 (0001ms, 0868ms total)
T46CC 015:068 JLINK_ReadReg(R0)  returns 0x00000000 (0000ms, 0868ms total)
T46CC 015:068 JLINK_ReadReg(R1)  returns 0x40003000 (0000ms, 0868ms total)
T46CC 015:068 JLINK_ReadReg(R2)  returns 0x20000038 (0000ms, 0868ms total)
T46CC 015:068 JLINK_ReadReg(R3)  returns 0x40200000 (0000ms, 0868ms total)
T46CC 015:068 JLINK_ReadReg(R4)  returns 0x00000000 (0000ms, 0868ms total)
T46CC 015:068 JLINK_ReadReg(R5)  returns 0x20000220 (0001ms, 0869ms total)
T46CC 015:069 JLINK_ReadReg(R6)  returns 0x00000000 (0000ms, 0869ms total)
T46CC 015:069 JLINK_ReadReg(R7)  returns 0x00000000 (0000ms, 0869ms total)
T46CC 015:069 JLINK_ReadReg(R8)  returns 0x00000000 (0000ms, 0869ms total)
T46CC 015:069 JLINK_ReadReg(R9)  returns 0x00000000 (0000ms, 0869ms total)
T46CC 015:069 JLINK_ReadReg(R10)  returns 0x08004B6C (0000ms, 0869ms total)
T46CC 015:069 JLINK_ReadReg(R11)  returns 0x00000000 (0000ms, 0869ms total)
T46CC 015:069 JLINK_ReadReg(R12)  returns 0x4061D9EC (0000ms, 0869ms total)
T46CC 015:069 JLINK_ReadReg(R13 (SP))  returns 0x20000878 (0000ms, 0869ms total)
T46CC 015:069 JLINK_ReadReg(R14)  returns 0x08003933 (0000ms, 0869ms total)
T46CC 015:069 JLINK_ReadReg(R15 (PC))  returns 0x08003E90 (0000ms, 0869ms total)
T46CC 015:069 JLINK_ReadReg(XPSR)  returns 0x61000000 (0000ms, 0869ms total)
T46CC 015:069 JLINK_ReadReg(MSP)  returns 0x20000878 (0000ms, 0869ms total)
T46CC 015:070 JLINK_ReadReg(PSP)  returns 0x00000000 (0000ms, 0869ms total)
T46CC 015:070 JLINK_ReadReg(CFBP)  returns 0x04000000 (0000ms, 0869ms total)
T46CC 015:070 JLINK_ReadReg(FPSCR)  returns 0x83000010 (0003ms, 0872ms total)
T46CC 015:073 JLINK_ReadReg(FPS0)  returns 0x43520000 (0000ms, 0872ms total)
T46CC 015:073 JLINK_ReadReg(FPS1)  returns 0x42866140 (0000ms, 0872ms total)
T46CC 015:073 JLINK_ReadReg(FPS2)  returns 0x42866140 (0000ms, 0872ms total)
T46CC 015:073 JLINK_ReadReg(FPS3)  returns 0x00000000 (0000ms, 0872ms total)
T46CC 015:073 JLINK_ReadReg(FPS4)  returns 0x00000000 (0000ms, 0872ms total)
T46CC 015:074 JLINK_ReadReg(FPS5)  returns 0x00000000 (0000ms, 0872ms total)
T46CC 015:074 JLINK_ReadReg(FPS6)  returns 0x00000000 (0000ms, 0872ms total)
T46CC 015:074 JLINK_ReadReg(FPS7)  returns 0x00000000 (0000ms, 0872ms total)
T46CC 015:074 JLINK_ReadReg(FPS8)  returns 0x00000000 (0000ms, 0872ms total)
T46CC 015:074 JLINK_ReadReg(FPS9)  returns 0x00000000 (0000ms, 0872ms total)
T46CC 015:074 JLINK_ReadReg(FPS10)  returns 0x00000000 (0000ms, 0872ms total)
T46CC 015:074 JLINK_ReadReg(FPS11)  returns 0x00000000 (0000ms, 0872ms total)
T46CC 015:074 JLINK_ReadReg(FPS12)  returns 0x00000000 (0000ms, 0872ms total)
T46CC 015:074 JLINK_ReadReg(FPS13)  returns 0x00000000 (0000ms, 0872ms total)
T46CC 015:074 JLINK_ReadReg(FPS14)  returns 0x00000000 (0000ms, 0872ms total)
T46CC 015:074 JLINK_ReadReg(FPS15)  returns 0x00000000 (0000ms, 0872ms total)
T46CC 015:074 JLINK_ReadReg(FPS16)  returns 0x00000000 (0000ms, 0872ms total)
T46CC 015:074 JLINK_ReadReg(FPS17)  returns 0x00000000 (0000ms, 0872ms total)
T46CC 015:074 JLINK_ReadReg(FPS18)  returns 0x00000000 (0001ms, 0873ms total)
T46CC 015:075 JLINK_ReadReg(FPS19)  returns 0x00000000 (0000ms, 0873ms total)
T46CC 015:075 JLINK_ReadReg(FPS20)  returns 0x00000000 (0000ms, 0873ms total)
T46CC 015:075 JLINK_ReadReg(FPS21)  returns 0x00000000 (0000ms, 0873ms total)
T46CC 015:075 JLINK_ReadReg(FPS22)  returns 0x00000000 (0000ms, 0873ms total)
T46CC 015:075 JLINK_ReadReg(FPS23)  returns 0x00000000 (0001ms, 0874ms total)
T46CC 015:076 JLINK_ReadReg(FPS24)  returns 0x00000000 (0000ms, 0874ms total)
T46CC 015:076 JLINK_ReadReg(FPS25)  returns 0x00000000 (0000ms, 0874ms total)
T46CC 015:076 JLINK_ReadReg(FPS26)  returns 0x00000000 (0000ms, 0874ms total)
T46CC 015:076 JLINK_ReadReg(FPS27)  returns 0x00000000 (0000ms, 0874ms total)
T46CC 015:076 JLINK_ReadReg(FPS28)  returns 0x00000000 (0000ms, 0874ms total)
T46CC 015:076 JLINK_ReadReg(FPS29)  returns 0x00000000 (0000ms, 0874ms total)
T46CC 015:076 JLINK_ReadReg(FPS30)  returns 0x00000000 (0000ms, 0874ms total)
T46CC 015:076 JLINK_ReadReg(FPS31)  returns 0x00000000 (0000ms, 0874ms total)
T4F84 015:078 JLINK_ReadMem (0x2000087C, 0x0004 Bytes, ...) -- CPU_ReadMem(64 bytes @ 0x20000840) -- Updating C cache (64 bytes @ 0x20000840) -- Read from C cache (4 bytes @ 0x2000087C) - Data: 37 02 00 08  returns 0x00 (0001ms, 0875ms total)
T4F84 015:079 JLINK_ReadMemU32(0xE0001004, 0x0001 Items, ...) -- CPU_ReadMem(4 bytes @ 0xE0001004) - Data: B4 3B 08 03  returns 0x01 (0001ms, 0876ms total)
T4F84 015:083 JLINK_ReadMem (0x20000038, 0x0004 Bytes, ...) -- CPU_ReadMem(64 bytes @ 0x20000000) -- Updating C cache (64 bytes @ 0x20000000) -- Read from C cache (4 bytes @ 0x20000038) - Data: 20 9D 44 43  returns 0x00 (0000ms, 0876ms total)
T4F84 015:100 JLINK_ReadMem (0x20000080, 0x0004 Bytes, ...) -- CPU_ReadMem(64 bytes @ 0x20000080) -- Updating C cache (64 bytes @ 0x20000080) -- Read from C cache (4 bytes @ 0x20000080) - Data: 00 BA 9F 42  returns 0x00 (0001ms, 0877ms total)
T4F84 015:108 JLINK_ReadMem (0x200000C8, 0x0004 Bytes, ...) -- CPU_ReadMem(64 bytes @ 0x200000C0) -- Updating C cache (64 bytes @ 0x200000C0) -- Read from C cache (4 bytes @ 0x200000C8) - Data: 80 2C 6E 43  returns 0x00 (0000ms, 0877ms total)
T4F84 015:113 JLINK_ReadMem (0x20000110, 0x0004 Bytes, ...) -- CPU_ReadMem(64 bytes @ 0x20000100) -- Updating C cache (64 bytes @ 0x20000100) -- Read from C cache (4 bytes @ 0x20000110) - Data: 40 61 86 42  returns 0x00 (0001ms, 0878ms total)
T46CC 015:995 JLINK_Step() -- CPU_ReadMem(64 bytes @ 0x08003E80) -- Updating C cache (64 bytes @ 0x08003E80) -- Read from C cache (2 bytes @ 0x08003E90) -- Read from C cache (2 bytes @ 0x08003E92) -- Simulated  returns 0x00 (0001ms, 0879ms total)
T46CC 015:996 JLINK_ReadReg(R15 (PC))  returns 0x080015A0 (0000ms, 0879ms total)
T46CC 015:996 JLINK_ReadReg(XPSR)  returns 0x61000000 (0001ms, 0880ms total)
T46CC 015:997 JLINK_SetBPEx(Addr = 0x080018F4, Type = 0xFFFFFFF2)  returns 0x0000000A (0000ms, 0880ms total)
T46CC 015:997 JLINK_SetBPEx(Addr = 0x08003E90, Type = 0xFFFFFFF2)  returns 0x0000000B (0000ms, 0880ms total)
T46CC 015:997 JLINK_Go() -- CPU_WriteMem(4 bytes @ 0xE0002000) -- CPU_WriteMem(4 bytes @ 0xE0002000) -- CPU_WriteMem(4 bytes @ 0xE0001004) (0002ms, 0882ms total)
T46CC 016:100 JLINK_IsHalted()  returns TRUE (0002ms, 0884ms total)
T46CC 016:102 JLINK_Halt()  returns 0x00 (0000ms, 0882ms total)
T46CC 016:102 JLINK_IsHalted()  returns TRUE (0000ms, 0882ms total)
T46CC 016:102 JLINK_IsHalted()  returns TRUE (0000ms, 0882ms total)
T46CC 016:102 JLINK_IsHalted()  returns TRUE (0000ms, 0882ms total)
T46CC 016:102 JLINK_ReadReg(R15 (PC))  returns 0x08003E90 (0000ms, 0882ms total)
T46CC 016:102 JLINK_ReadReg(XPSR)  returns 0x61000000 (0000ms, 0882ms total)
T46CC 016:102 JLINK_ClrBPEx(BPHandle = 0x0000000A)  returns 0x00 (0001ms, 0883ms total)
T46CC 016:103 JLINK_ClrBPEx(BPHandle = 0x0000000B)  returns 0x00 (0000ms, 0883ms total)
T46CC 016:103 JLINK_ReadMemU32(0xE000ED30, 0x0001 Items, ...) -- CPU_ReadMem(4 bytes @ 0xE000ED30) - Data: 02 00 00 00  returns 0x01 (0000ms, 0883ms total)
T46CC 016:103 JLINK_ReadMemU32(0xE0001028, 0x0001 Items, ...) -- CPU_ReadMem(4 bytes @ 0xE0001028) - Data: 00 00 00 00  returns 0x01 (0001ms, 0884ms total)
T46CC 016:104 JLINK_ReadMemU32(0xE0001038, 0x0001 Items, ...) -- CPU_ReadMem(4 bytes @ 0xE0001038) - Data: 00 02 00 00  returns 0x01 (0000ms, 0884ms total)
T46CC 016:105 JLINK_ReadMemU32(0xE0001048, 0x0001 Items, ...) -- CPU_ReadMem(4 bytes @ 0xE0001048) - Data: 00 00 00 00  returns 0x01 (0000ms, 0885ms total)
T46CC 016:105 JLINK_ReadMemU32(0xE0001058, 0x0001 Items, ...) -- CPU_ReadMem(4 bytes @ 0xE0001058) - Data: 00 00 00 00  returns 0x01 (0001ms, 0886ms total)
T46CC 016:106 JLINK_ReadReg(R0)  returns 0x00000000 (0000ms, 0886ms total)
T46CC 016:106 JLINK_ReadReg(R1)  returns 0x40003000 (0000ms, 0886ms total)
T46CC 016:106 JLINK_ReadReg(R2)  returns 0x20000038 (0000ms, 0886ms total)
T46CC 016:106 JLINK_ReadReg(R3)  returns 0x40200000 (0000ms, 0886ms total)
T46CC 016:106 JLINK_ReadReg(R4)  returns 0x00000000 (0000ms, 0886ms total)
T46CC 016:106 JLINK_ReadReg(R5)  returns 0x20000220 (0000ms, 0886ms total)
T46CC 016:106 JLINK_ReadReg(R6)  returns 0x00000000 (0000ms, 0886ms total)
T46CC 016:106 JLINK_ReadReg(R7)  returns 0x00000000 (0001ms, 0887ms total)
T46CC 016:107 JLINK_ReadReg(R8)  returns 0x00000000 (0000ms, 0887ms total)
T46CC 016:107 JLINK_ReadReg(R9)  returns 0x00000000 (0000ms, 0887ms total)
T46CC 016:107 JLINK_ReadReg(R10)  returns 0x08004B6C (0000ms, 0887ms total)
T46CC 016:107 JLINK_ReadReg(R11)  returns 0x00000000 (0000ms, 0887ms total)
T46CC 016:107 JLINK_ReadReg(R12)  returns 0x4061D564 (0000ms, 0887ms total)
T46CC 016:107 JLINK_ReadReg(R13 (SP))  returns 0x20000878 (0000ms, 0887ms total)
T46CC 016:107 JLINK_ReadReg(R14)  returns 0x08003933 (0000ms, 0887ms total)
T46CC 016:107 JLINK_ReadReg(R15 (PC))  returns 0x08003E90 (0000ms, 0887ms total)
T46CC 016:107 JLINK_ReadReg(XPSR)  returns 0x61000000 (0000ms, 0887ms total)
T46CC 016:107 JLINK_ReadReg(MSP)  returns 0x20000878 (0000ms, 0887ms total)
T46CC 016:107 JLINK_ReadReg(PSP)  returns 0x00000000 (0000ms, 0887ms total)
T46CC 016:107 JLINK_ReadReg(CFBP)  returns 0x04000000 (0000ms, 0887ms total)
T46CC 016:107 JLINK_ReadReg(FPSCR)  returns 0x83000010 (0004ms, 0891ms total)
T46CC 016:111 JLINK_ReadReg(FPS0)  returns 0x43520000 (0000ms, 0891ms total)
T46CC 016:111 JLINK_ReadReg(FPS1)  returns 0x4286A9C0 (0000ms, 0891ms total)
T46CC 016:111 JLINK_ReadReg(FPS2)  returns 0x4286A9C0 (0000ms, 0891ms total)
T46CC 016:111 JLINK_ReadReg(FPS3)  returns 0x00000000 (0000ms, 0891ms total)
T46CC 016:111 JLINK_ReadReg(FPS4)  returns 0x00000000 (0000ms, 0891ms total)
T46CC 016:111 JLINK_ReadReg(FPS5)  returns 0x00000000 (0000ms, 0891ms total)
T46CC 016:111 JLINK_ReadReg(FPS6)  returns 0x00000000 (0000ms, 0891ms total)
T46CC 016:111 JLINK_ReadReg(FPS7)  returns 0x00000000 (0000ms, 0891ms total)
T46CC 016:111 JLINK_ReadReg(FPS8)  returns 0x00000000 (0000ms, 0891ms total)
T46CC 016:111 JLINK_ReadReg(FPS9)  returns 0x00000000 (0000ms, 0891ms total)
T46CC 016:111 JLINK_ReadReg(FPS10)  returns 0x00000000 (0000ms, 0891ms total)
T46CC 016:111 JLINK_ReadReg(FPS11)  returns 0x00000000 (0000ms, 0891ms total)
T46CC 016:112 JLINK_ReadReg(FPS12)  returns 0x00000000 (0000ms, 0892ms total)
T46CC 016:112 JLINK_ReadReg(FPS13)  returns 0x00000000 (0000ms, 0892ms total)
T46CC 016:112 JLINK_ReadReg(FPS14)  returns 0x00000000 (0000ms, 0892ms total)
T46CC 016:112 JLINK_ReadReg(FPS15)  returns 0x00000000 (0000ms, 0892ms total)
T46CC 016:112 JLINK_ReadReg(FPS16)  returns 0x00000000 (0000ms, 0892ms total)
T46CC 016:112 JLINK_ReadReg(FPS17)  returns 0x00000000 (0000ms, 0892ms total)
T46CC 016:112 JLINK_ReadReg(FPS18)  returns 0x00000000 (0000ms, 0892ms total)
T46CC 016:112 JLINK_ReadReg(FPS19)  returns 0x00000000 (0000ms, 0892ms total)
T46CC 016:112 JLINK_ReadReg(FPS20)  returns 0x00000000 (0000ms, 0892ms total)
T46CC 016:112 JLINK_ReadReg(FPS21)  returns 0x00000000 (0000ms, 0892ms total)
T46CC 016:112 JLINK_ReadReg(FPS22)  returns 0x00000000 (0000ms, 0892ms total)
T46CC 016:112 JLINK_ReadReg(FPS23)  returns 0x00000000 (0000ms, 0892ms total)
T46CC 016:112 JLINK_ReadReg(FPS24)  returns 0x00000000 (0000ms, 0892ms total)
T46CC 016:113 JLINK_ReadReg(FPS25)  returns 0x00000000 (0000ms, 0892ms total)
T46CC 016:113 JLINK_ReadReg(FPS26)  returns 0x00000000 (0000ms, 0892ms total)
T46CC 016:113 JLINK_ReadReg(FPS27)  returns 0x00000000 (0000ms, 0892ms total)
T46CC 016:113 JLINK_ReadReg(FPS28)  returns 0x00000000 (0000ms, 0892ms total)
T46CC 016:113 JLINK_ReadReg(FPS29)  returns 0x00000000 (0000ms, 0892ms total)
T46CC 016:113 JLINK_ReadReg(FPS30)  returns 0x00000000 (0000ms, 0892ms total)
T46CC 016:113 JLINK_ReadReg(FPS31)  returns 0x00000000 (0000ms, 0892ms total)
T4F84 016:130 JLINK_ReadMem (0x2000087C, 0x0004 Bytes, ...) -- CPU_ReadMem(64 bytes @ 0x20000840) -- Updating C cache (64 bytes @ 0x20000840) -- Read from C cache (4 bytes @ 0x2000087C) - Data: 37 02 00 08  returns 0x00 (0001ms, 0893ms total)
T4F84 016:131 JLINK_ReadMemU32(0xE0001004, 0x0001 Items, ...) -- CPU_ReadMem(4 bytes @ 0xE0001004) - Data: 67 95 C9 03  returns 0x01 (0001ms, 0894ms total)
T4F84 016:139 JLINK_ReadMem (0x20000038, 0x0004 Bytes, ...) -- CPU_ReadMem(64 bytes @ 0x20000000) -- Updating C cache (64 bytes @ 0x20000000) -- Read from C cache (4 bytes @ 0x20000038) - Data: A0 E5 44 43  returns 0x00 (0001ms, 0895ms total)
T4F84 016:161 JLINK_ReadMem (0x20000080, 0x0004 Bytes, ...) -- CPU_ReadMem(64 bytes @ 0x20000080) -- Updating C cache (64 bytes @ 0x20000080) -- Read from C cache (4 bytes @ 0x20000080) - Data: 00 BA 9F 42  returns 0x00 (0000ms, 0895ms total)
T4F84 016:165 JLINK_ReadMem (0x200000C8, 0x0004 Bytes, ...) -- CPU_ReadMem(64 bytes @ 0x200000C0) -- Updating C cache (64 bytes @ 0x200000C0) -- Read from C cache (4 bytes @ 0x200000C8) - Data: 40 08 6E 43  returns 0x00 (0001ms, 0896ms total)
